
**** 04/06/20 02:21:50 ******* PSpice 16.3.0 (June 2009) ****** ID# 0 ********

 ** Profile: "SCHEMATIC1-alejocas"  [ C:\Users\alejo\Desktop\Universidad Del Valle\Sexto Semestre\Circuitos Electronicos\OrCad\filtro


 ****     CIRCUIT DESCRIPTION


******************************************************************************




** Creating circuit file "alejocas.cir" 
** WARNING: THIS AUTOMATICALLY GENERATED FILE MAY BE OVERWRITTEN BY SUBSEQUENT SIMULATIONS

*Libraries: 
* Profile Libraries :
* Local Libraries :
* From [PSPICE NETLIST] section of C:\Cadence\SPB_16.3\tools\PSpice\PSpice.ini file:
.lib "nom.lib" 

*Analysis directives: 
.TRAN  0 15s 0 
.PROBE V(alias(*)) I(alias(*)) W(alias(*)) D(alias(*)) NOISE(alias(*)) 
.INC "..\SCHEMATIC1.net" 



**** INCLUDING SCHEMATIC1.net ****
* source FILTRO
V_V2         N07270 0   PWL   
+ FILE "C:\Users\alejo\Desktop\pulso_orcad_ruido.txt" 
R_R1         N00531 N00516  27k  
R_R2         N00516 N00546  27k  
R_R3         N00542 N00932  15k  
C_C1         N00531 N00542  100n   
C_C2         N00542 N00546  100n   
C_C3         0 N00516  220n   
X_U1A         N00546 N00932 VCC -VCC N00932 LM124
V_V3         VCC 0 12
V_V4         0 -VCC 12
R_R4         N00932 N01407  8.2  
C_C4         0 N01407  10m   
R_R5         N03967 N03955  4k TC=0,0 
X_U2         N07270 0 N00531 0 N03955 N03967 VCC -VCC  AD627A/AD
R_R6         N07962 VCC  0.5k TC=0,0 
R_R8         0 N01407  100k TC=0,0 
R_R9         0 N07966  150 TC=0,0 
C_C7         N07962 N09117  4700u   
R_R10         N01407 VCC  200k TC=0,0 
X_M3         N07962 N01407 N07966 2N7000KL
C_C6         0 N07966  470u   
R_R11         0 N09117  100k TC=0,0 
V_V8         VI 0 DC 0Vdc AC 1Vac 
C_C9         0 VO  10m   
R_R14         VI VO  8.2  
R_R15         N09117 N18511  15 TC=0,0 
R_R16         N18497 N18635  100k TC=0,0 
R_R17         0 N18497  100k TC=0,0 
C_C11         N18511 N18497  100u  TC=0,0 
C_C12         0 N18511  0.1m  TC=0,0 
V_V9         0 N18635 3.3V

**** RESUMING alejocas.cir ****
.END

**** 04/06/20 02:21:50 ******* PSpice 16.3.0 (June 2009) ****** ID# 0 ********

 ** Profile: "SCHEMATIC1-alejocas"  [ C:\Users\alejo\Desktop\Universidad Del Valle\Sexto Semestre\Circuitos Electronicos\OrCad\filtro


 ****     Diode MODEL PARAMETERS


******************************************************************************




               X_U1A.dx        X_U1A.dy        X_U2.DX         X_M3.DBD        
          IS  800.000000E-18  800.000000E-18   10.000000E-15    1.000000E-12 
          BV                                                   60.5          
          RS    1               1.000000E-03                    1            
          TT                                                   40.000000E-09 
         CJO                   10.000000E-12                   13.000000E-12 
          VJ                                                     .38         
           M                                                     .3          
          FC                                                     .1          


               X_U2.X_U1.DX    X_U2.X_U2.DX    
          IS   10.000000E-15   10.000000E-15 


**** 04/06/20 02:21:50 ******* PSpice 16.3.0 (June 2009) ****** ID# 0 ********

 ** Profile: "SCHEMATIC1-alejocas"  [ C:\Users\alejo\Desktop\Universidad Del Valle\Sexto Semestre\Circuitos Electronicos\OrCad\filtro


 ****     BJT MODEL PARAMETERS


******************************************************************************




               X_U1A.qx        X_U2.QPI        X_U2.X_U1.QPI   X_U2.X_U2.QPI   
               PNP             PNP             PNP             PNP             
       LEVEL    1               1               1               1            
          IS  800.000000E-18  100.000000E-18  100.000000E-18  100.000000E-18 
          BF  166.7           100             100             100            
          NF    1               1               1               1            
          BR    1               1               1               1            
          NR    1               1               1               1            
         ISS    0               0               0               0            
          RE    0               0               0               0            
          RC    0               0               0               0            
         CJE    0               0               0               0            
         VJE     .75             .75             .75             .75         
         CJC    0               0               0               0            
         VJC     .75             .75             .75             .75         
         MJC     .33             .33             .33             .33         
        XCJC    1               1               1               1            
         CJS    0               0               0               0            
         VJS     .75             .75             .75             .75         
          KF    0               0               0               0            
          AF    1               1               1               1            
          CN    2.2             2.2             2.2             2.2          
           D     .52             .52             .52             .52         


**** 04/06/20 02:21:50 ******* PSpice 16.3.0 (June 2009) ****** ID# 0 ********

 ** Profile: "SCHEMATIC1-alejocas"  [ C:\Users\alejo\Desktop\Universidad Del Valle\Sexto Semestre\Circuitos Electronicos\OrCad\filtro


 ****     MOSFET MODEL PARAMETERS


******************************************************************************




               X_M3.NMOS       X_M3.PMOS       
               NMOS            PMOS            
       LEVEL    3               3            
         TPG                   -1            
           L  100.000000E-06  100.000000E-06 
           W  100.000000E-06  100.000000E-06 
         VTO    2.421896       -2.555327     
          KP   10.000000E-06   29.598380E-06 
       GAMMA    2.908168        1.88326      
         PHI     .789814         .744861     
      LAMBDA    0               0            
          RS     .4                          
          IS    0              10.000000E-15 
          JS    0               0            
          PB     .8              .8          
        PBSW     .8              .8          
          CJ  801.975400E-06  519.340200E-06 
        CJSW    0               0            
        CGSO    0               0            
        CGDO    0               0            
        CGBO    0               0            
        NSUB   62.000000E+15   26.000000E+15 
         NFS  800.000000E+09                 
         TOX   70.000000E-09   70.000000E-09 
          XJ  500.000000E-09    0            
          UO  650                            
       UCRIT   10.000000E+03   10.000000E+03 
       DELTA     .1                          
         ETA  100.000000E-06                 
       KAPPA     .08                         
      DIOMOD    1               1            
         VFB    0               0            
        LETA    0               0            
        WETA    0               0            
          U0    0               0            
        TEMP    0               0            
         VDD    5               5            
       XPART    0               0            


**** 04/06/20 02:21:50 ******* PSpice 16.3.0 (June 2009) ****** ID# 0 ********

 ** Profile: "SCHEMATIC1-alejocas"  [ C:\Users\alejo\Desktop\Universidad Del Valle\Sexto Semestre\Circuitos Electronicos\OrCad\filtro


 ****     Resistor MODEL PARAMETERS


******************************************************************************




               X_M3.RTEMP      
           R    1            
         TC1    8.000000E-03 
         TC2    5.500000E-06 


**** 04/06/20 02:21:50 ******* PSpice 16.3.0 (June 2009) ****** ID# 0 ********

 ** Profile: "SCHEMATIC1-alejocas"  [ C:\Users\alejo\Desktop\Universidad Del Valle\Sexto Semestre\Circuitos Electronicos\OrCad\filtro


 ****     INITIAL TRANSIENT SOLUTION       TEMPERATURE =   27.000 DEG C


******************************************************************************



 NODE   VOLTAGE     NODE   VOLTAGE     NODE   VOLTAGE     NODE   VOLTAGE


(   VI)    0.0000  (   VO)    0.0000  (  VCC)   12.0000  ( -VCC)  -12.0000      

(N00516)    1.4250 (N00531)    1.4238 (N00542)    1.4260 (N00546)    1.4262     

(N00932)    1.4260 (N01407)    1.4264 (N03955)     .6030 (N03967)     .5771     

(N07270)     .0256 (N07962)   11.9500 (N07966)     .0151 (N09117)    0.0000     

(N18497)   -1.6500 (N18511)    0.0000 (N18635)   -3.3000 (X_M3.3)   11.9500     

(X_U2.3)  -11.9000 (X_U2.4) 9.777E-06 (X_U2.6)  -11.9000 (X_U2.7)     .0259     

(X_U2.8)     .0259 (X_U2.9)     .5722 (X_U1A.6)-268.3E-06                       

(X_U1A.7)    1.4241                   (X_U1A.8)    1.4241                       

(X_U1A.9)    0.0000                   (X_U2.10)  -11.9000                       

(X_U2.11)    1.4228                   (X_U1A.10)    2.0335                      

(X_U1A.11)  -11.9610                  (X_U1A.12)  -11.9610                      

(X_U1A.13)    2.0197                  (X_U1A.14)    2.0197                      

(X_U1A.53)   10.5000                  (X_U1A.54)  -11.3500                      

(X_U1A.90)    -.0386                  (X_U1A.91)   40.0000                      

(X_U1A.92)  -40.0000                  (X_U1A.99)    0.0000                      

(X_U2.X_U1.2)    0.0000               (X_U2.X_U1.3)    0.0000                   

(X_U2.X_U1.4)  -11.3050               (X_U2.X_U1.5)  -11.9000                   

(X_U2.X_U1.6)  -11.9000               (X_U2.X_U1.7)-11.90E-09                   

(X_U2.X_U1.8)  -11.9010               (X_U2.X_U1.9)  -11.9010                   

(X_U2.X_U2.2)    0.0000               (X_U2.X_U2.3)    0.0000                   

(X_U2.X_U2.4)  -11.3050               (X_U2.X_U2.5)  -11.9000                   

(X_U2.X_U2.6)  -11.9000               (X_U2.X_U2.7)-11.90E-09                   

(X_U2.X_U2.8)  -11.9010               (X_U2.X_U2.9)  -11.9010                   

(X_U2.X_U1.10)  -11.2000              (X_U2.X_U1.11)   11.2000                  

(X_U2.X_U1.12) 310.0E-06              (X_U2.X_U1.13) 310.0E-06                  

(X_U2.X_U1.14)  -11.3750              (X_U2.X_U1.15)   11.3300                  

(X_U2.X_U1.20)   11.3300              (X_U2.X_U1.21)  -11.3750                  

(X_U2.X_U1.98)    0.0000              (X_U2.X_U2.10)  -11.2000                  

(X_U2.X_U2.11)   11.2000              (X_U2.X_U2.12)     .0014                  

(X_U2.X_U2.13)     .0014              (X_U2.X_U2.14)  -11.3750                  

(X_U2.X_U2.15)   11.3300              (X_U2.X_U2.20)   11.3300                  

(X_U2.X_U2.21)  -11.3750              (X_U2.X_U2.98)    0.0000              




    VOLTAGE SOURCE CURRENTS
    NAME         CURRENT

    V_V2         3.889E-09
    V_V3        -3.075E-03
    V_V4        -2.916E-03
    V_V8         0.000E+00
    V_V9        -1.650E-05
    X_U1A.vb    -2.683E-09
    X_U1A.vc     9.075E-12
    X_U1A.ve     1.314E-11
    X_U1A.vlim  -3.865E-05
    X_U1A.vlp   -4.004E-11
    X_U1A.vln   -3.997E-11
    X_U2.V4      4.445E-08
    X_U2.V5      3.889E-09
    X_U2.V1      1.980E-08
    X_U2.X_U1.V1   1.134E-11
    X_U2.X_U1.V2   1.139E-11
    X_U2.X_U1.V5   1.077E-11
    X_U2.X_U1.V6   1.196E-11
    X_U2.X_U1.V7   1.121E-11
    X_U2.X_U1.V8   1.121E-11
    X_U2.X_U2.V1   1.134E-11
    X_U2.X_U2.V2   1.139E-11
    X_U2.X_U2.V5   9.917E-12
    X_U2.X_U2.V6   1.281E-11
    X_U2.X_U2.V7   1.121E-11
    X_U2.X_U2.V8   1.121E-11

    TOTAL POWER DISSIPATION   7.19E-02  WATTS



          JOB CONCLUDED

**** 04/06/20 02:21:50 ******* PSpice 16.3.0 (June 2009) ****** ID# 0 ********

 ** Profile: "SCHEMATIC1-alejocas"  [ C:\Users\alejo\Desktop\Universidad Del Valle\Sexto Semestre\Circuitos Electronicos\OrCad\filtro


 ****     JOB STATISTICS SUMMARY


******************************************************************************



  Total job time (using Solver 1)   =        4.81
